
T13C8 000:333 SEGGER J-Link V4.96d Log File (0001ms, 0260ms total)
T13C8 000:333 DLL Compiled: Jan 29 2015 11:45:37 (0001ms, 0260ms total)
T13C8 000:333 Logging started @ 2015-05-06 21:21 (0001ms, 0260ms total)
T13C8 000:334 JLINK_SetWarnOutHandler(...) (0000ms, 0260ms total)
T13C8 000:334 JLINK_OpenEx(...)
Firmware: J-Link OB-SAM3U128-V2-NordicSemi compiled Nov 28 2014 10:32:04
Hardware: V1.00
S/N: 681763028  returns O.K. (0261ms, 0521ms total)
T13C8 000:595 JLINK_SetErrorOutHandler(...) (0000ms, 0521ms total)
T13C8 000:595 JLINK_ExecCommand("ProjectFile = "C:\Users\Graham\Documents\ble_peripheral\ble_app_emg\pca10028\s110\arm5\JLinkSettings.ini"", ...)  returns 0x00 (0001ms, 0522ms total)
T13C8 000:615 JLINK_ExecCommand("Device = nRF51422_xxAC", ...)Device "NRF51422_XXAC" selected.  returns 0x00 (0010ms, 0532ms total)
T13C8 000:625 JLINK_ExecCommand("DisableConnectionTimeout", ...)  returns 0x01 (0000ms, 0532ms total)
T13C8 000:625 JLINK_GetHardwareVersion()  returns 0x2710 (0000ms, 0532ms total)
T13C8 000:625 JLINK_GetDLLVersion()  returns 49604 (0000ms, 0532ms total)
T13C8 000:625 JLINK_GetFirmwareString(...) (0000ms, 0532ms total)
T13C8 000:639 JLINK_GetDLLVersion()  returns 49604 (0000ms, 0532ms total)
T13C8 000:639 JLINK_GetCompileDateTime() (0000ms, 0532ms total)
T13C8 000:644 JLINK_GetFirmwareString(...) (0000ms, 0532ms total)
T13C8 000:651 JLINK_GetHardwareVersion()  returns 0x2710 (0000ms, 0532ms total)
T13C8 000:665 JLINK_TIF_Select(JLINKARM_TIF_SWD)  returns 0x00 (0001ms, 0533ms total)
T13C8 000:666 JLINK_SetSpeed(20000) (0000ms, 0533ms total)
T13C8 000:666 JLINK_GetId() >0x108 TIF>Found SWD-DP with ID 0x0BB11477 >0x35 TIF> >0x0D TIF> >0x28 TIF> >0x0D TIF> >0x28 TIF> >0x35 TIF> >0x0D TIF> >0x28 TIF> >0x35 TIF> >0x35 TIF> >0x35 TIF> >0x0D TIF> >0x28 TIF> >0x0D TIF> >0x28 TIF> >0x0D TIF> >0x28 TIF> >0x35 TIF> >0x35 TIF> >0x35 TIF> >0x0D TIF> >0x28 TIF> >0x0D TIF> >0x28 TIF> >0x35 TIF> >0x0D TIF> >0x28 TIF> >0x0D TIF> >0x28 TIF> >0x0D TIF> >0x28 TIF> >0x35 TIF> >0x35 TIF> >0x0D TIF> >0x28 TIF> >0x35 TIF> >0x35 TIF>
Found Cortex-M0 r0p0, Little endian. -- CPU_WriteMem(4 bytes @ 0xE0002000) -- CPU_ReadMem(4 bytes @ 0xE000EDF0) -- CPU_WriteMem(4 bytes @ 0xE000EDF0) -- CPU_ReadMem(4 bytes @ 0xE0002000)FPUnit: 4 code (BP) slots and 0 literal slots -- CPU_ReadMem(4 bytes @ 0xE000EDFC) -- CPU_WriteMem(4 bytes @ 0xE000EDFC) -- CPU_ReadMem(4 bytes @ 0xE0001000) -- CPU_WriteMem(4 bytes @ 0xE0001000) -- CPU_ReadMem(4 bytes @ 0xE00FF018) >0x35 TIF>  returns 0x0BB11477 (0036ms, 0569ms total)
T13C8 000:702 JLINK_GetDLLVersion()  returns 49604 (0000ms, 0569ms total)
T13C8 000:702 JLINK_CORE_GetFound()  returns 0x60000FF (0000ms, 0569ms total)
T13C8 000:702 JLINK_GetDebugInfo(0x100) -- Value=0xF0000003  returns 0x00 (0000ms, 0569ms total)
T13C8 000:707 JLINK_ReadMem (0xF0000000, 0x0020 Bytes, ...) -- CPU is running -- CPU_ReadMem(32 bytes @ 0xF0000000) - Data: 03 F0 0F F0 03 20 00 00 00 00 00 00 00 00 00 00 ...  returns 0x00 (0001ms, 0570ms total)
T13C8 000:708 JLINK_ReadMem (0xE00FFFF0, 0x0010 Bytes, ...) -- CPU is running -- CPU_ReadMem(16 bytes @ 0xE00FFFF0) - Data: 0D 00 00 00 10 00 00 00 05 00 00 00 B1 00 00 00  returns 0x00 (0002ms, 0572ms total)
T13C8 000:710 JLINK_ReadMem (0xE00FFFD0, 0x0020 Bytes, ...) -- CPU is running -- CPU_ReadMem(32 bytes @ 0xE00FFFD0) - Data: 04 00 00 00 00 00 00 00 00 00 00 00 00 00 00 00 ...  returns 0x00 (0001ms, 0573ms total)
T13C8 000:711 JLINK_ReadMem (0xE00FF000, 0x0020 Bytes, ...) -- CPU is running -- CPU_ReadMem(32 bytes @ 0xE00FF000) - Data: 03 F0 F0 FF 03 20 F0 FF 03 30 F0 FF 00 00 00 00 ...  returns 0x00 (0001ms, 0574ms total)
T13C8 000:712 JLINK_ReadMem (0xE000EFF0, 0x0010 Bytes, ...) -- CPU is running -- CPU_ReadMem(16 bytes @ 0xE000EFF0) - Data: 0D 00 00 00 E0 00 00 00 05 00 00 00 B1 00 00 00  returns 0x00 (0001ms, 0575ms total)
T13C8 000:713 JLINK_ReadMem (0xE000EFD0, 0x0020 Bytes, ...) -- CPU is running -- CPU_ReadMem(32 bytes @ 0xE000EFD0) - Data: 04 00 00 00 00 00 00 00 00 00 00 00 00 00 00 00 ...  returns 0x00 (0001ms, 0576ms total)
T13C8 000:714 JLINK_ReadMem (0xE0001FF0, 0x0010 Bytes, ...) -- CPU is running -- CPU_ReadMem(16 bytes @ 0xE0001FF0) - Data: 0D 00 00 00 E0 00 00 00 05 00 00 00 B1 00 00 00  returns 0x00 (0002ms, 0578ms total)
T13C8 000:716 JLINK_ReadMem (0xE0001FD0, 0x0020 Bytes, ...) -- CPU is running -- CPU_ReadMem(32 bytes @ 0xE0001FD0) - Data: 04 00 00 00 00 00 00 00 00 00 00 00 00 00 00 00 ...  returns 0x00 (0001ms, 0579ms total)
T13C8 000:717 JLINK_ReadMem (0xE0002FF0, 0x0010 Bytes, ...) -- CPU is running -- CPU_ReadMem(16 bytes @ 0xE0002FF0) - Data: 0D 00 00 00 E0 00 00 00 05 00 00 00 B1 00 00 00  returns 0x00 (0001ms, 0580ms total)
T13C8 000:718 JLINK_ReadMem (0xE0002FD0, 0x0020 Bytes, ...) -- CPU is running -- CPU_ReadMem(32 bytes @ 0xE0002FD0) - Data: 04 00 00 00 00 00 00 00 00 00 00 00 00 00 00 00 ...  returns 0x00 (0001ms, 0581ms total)
T13C8 000:719 JLINK_ReadMem (0xF0002FF0, 0x0010 Bytes, ...) -- CPU is running -- CPU_ReadMem(16 bytes @ 0xF0002FF0) - Data: 0D 00 00 00 90 00 00 00 05 00 00 00 B1 00 00 00  returns 0x00 (0001ms, 0582ms total)
T13C8 000:720 JLINK_ReadMem (0xF0002FD0, 0x0020 Bytes, ...) -- CPU is running -- CPU_ReadMem(32 bytes @ 0xF0002FD0) - Data: 04 00 00 00 00 00 00 00 00 00 00 00 00 00 00 00 ...  returns 0x00 (0001ms, 0583ms total)
T13C8 000:721 JLINK_ReadMemU32(0xE000ED00, 0x0001 Items, ...) -- CPU is running -- CPU_ReadMem(4 bytes @ 0xE000ED00) - Data: 00 C2 0C 41  returns 0x01 (0001ms, 0584ms total)
T13C8 000:722 JLINK_SetResetType(JLINKARM_RESET_TYPE_NORMAL)  returns JLINKARM_RESET_TYPE_NORMAL (0000ms, 0584ms total)
T13C8 000:722 JLINK_Reset() -- CPU is running -- CPU_WriteMem(4 bytes @ 0xE000EDF0) -- CPU is running -- CPU_WriteMem(4 bytes @ 0xE000EDFC) >0x35 TIF> -- CPU is running -- CPU_WriteMem(4 bytes @ 0xE000ED0C) -- CPU is running -- CPU_ReadMem(4 bytes @ 0xE000EDF0) -- CPU is running -- CPU_ReadMem(4 bytes @ 0xE000EDF0) -- CPU is running -- CPU_WriteMem(4 bytes @ 0xE000EDF0) -- CPU is running -- CPU_WriteMem(4 bytes @ 0xE000EDFC) -- CPU is running -- CPU_ReadMem(4 bytes @ 0xE000EDF0)
 -- CPU_WriteMem(4 bytes @ 0xE0002000) -- CPU_ReadMem(4 bytes @ 0xE000EDFC) -- CPU_ReadMem(4 bytes @ 0xE0001000) -- CPU_WriteMem(4 bytes @ 0xE0001000) (0023ms, 0607ms total)
T13C8 000:745 JLINK_Halt()  returns 0x00 (0000ms, 0607ms total)
T13C8 000:745 JLINK_IsHalted()  returns TRUE (0000ms, 0607ms total)
T13C8 000:745 JLINK_ReadMemU32(0xE000EDF0, 0x0001 Items, ...) -- CPU_ReadMem(4 bytes @ 0xE000EDF0) - Data: 03 00 03 00  returns 0x01 (0001ms, 0608ms total)
T13C8 000:746 JLINK_WriteU32(0xE000EDF0, 0xA05F0003) -- CPU_WriteMem(4 bytes @ 0xE000EDF0)  returns 0x00 (0001ms, 0609ms total)
T13C8 000:747 JLINK_WriteU32(0xE000EDFC, 0x01000000) -- CPU_WriteMem(4 bytes @ 0xE000EDFC)  returns 0x00 (0001ms, 0610ms total)
T13C8 000:766 JLINK_GetHWStatus(...)  returns 0x00 (0000ms, 0610ms total)
T13C8 000:777 JLINK_GetNumBPUnits(Type = 0xFFFFFF00)  returns 0x04 (0000ms, 0610ms total)
T13C8 000:777 JLINK_GetNumBPUnits(Type = 0xF0)  returns 0x2000 (0000ms, 0610ms total)
T13C8 000:777 JLINK_GetNumWPUnits()  returns 0x02 (0000ms, 0610ms total)
T13C8 000:789 JLINK_GetSpeed()  returns 0x3E8 (0000ms, 0610ms total)
T13C8 000:797 JLINK_ReadMemU32(0xE000E004, 0x0001 Items, ...) -- CPU_ReadMem(4 bytes @ 0xE000E004) - Data: 00 00 00 00  returns 0x01 (0001ms, 0611ms total)
T13C8 000:798 JLINK_Halt()  returns 0x00 (0000ms, 0611ms total)
T13C8 000:798 JLINK_IsHalted()  returns TRUE (0000ms, 0611ms total)
T13C8 000:804 JLINK_WriteMem(0x20000000, 0x0470 Bytes, ...) - Data: 00 BE 0A E0 0D 78 2D 06 68 40 08 24 40 00 00 D3 ... -- CPU_WriteMem(1136 bytes @ 0x20000000)  returns 0x470 (0017ms, 0628ms total)
T13C8 000:821 JLINK_WriteReg(R0, 0x00000000)  returns 0x00 (0000ms, 0628ms total)
T13C8 000:821 JLINK_WriteReg(R1, 0x00F42400)  returns 0x00 (0000ms, 0628ms total)
T13C8 000:821 JLINK_WriteReg(R2, 0x00000001)  returns 0x00 (0000ms, 0628ms total)
T13C8 000:821 JLINK_WriteReg(R3, 0x00000000)  returns 0x00 (0000ms, 0628ms total)
T13C8 000:822 JLINK_WriteReg(R4, 0x00000000)  returns 0x00 (0000ms, 0629ms total)
T13C8 000:822 JLINK_WriteReg(R5, 0x00000000)  returns 0x00 (0000ms, 0629ms total)
T13C8 000:822 JLINK_WriteReg(R6, 0x00000000)  returns 0x00 (0000ms, 0629ms total)
T13C8 000:822 JLINK_WriteReg(R7, 0x00000000)  returns 0x00 (0000ms, 0629ms total)
T13C8 000:822 JLINK_WriteReg(R8, 0x00000000)  returns 0x00 (0000ms, 0629ms total)
T13C8 000:822 JLINK_WriteReg(R9, 0x2000046C)  returns 0x00 (0000ms, 0629ms total)
T13C8 000:822 JLINK_WriteReg(R10, 0x00000000)  returns 0x00 (0000ms, 0629ms total)
T13C8 000:822 JLINK_WriteReg(R11, 0x00000000)  returns 0x00 (0000ms, 0629ms total)
T13C8 000:822 JLINK_WriteReg(R12, 0x00000000)  returns 0x00 (0000ms, 0629ms total)
T13C8 000:822 JLINK_WriteReg(R13 (SP), 0x20002000)  returns 0x00 (0000ms, 0629ms total)
T13C8 000:822 JLINK_WriteReg(R14, 0x20000001)  returns 0x00 (0000ms, 0629ms total)
T13C8 000:822 JLINK_WriteReg(R15 (PC), 0x20000028)  returns 0x00 (0000ms, 0629ms total)
T13C8 000:822 JLINK_WriteReg(XPSR, 0x01000000)  returns 0x00 (0000ms, 0629ms total)
T13C8 000:822 JLINK_WriteReg(MSP, 0x20002000)  returns 0x00 (0000ms, 0629ms total)
T13C8 000:822 JLINK_WriteReg(PSP, 0x20002000)  returns 0x00 (0000ms, 0629ms total)
T13C8 000:822 JLINK_WriteReg(CFBP, 0x00000000)  returns 0x00 (0000ms, 0629ms total)
T13C8 000:822 JLINK_SetBPEx(Addr = 0x20000000, Type = 0xFFFFFFF2) -- CPU_ReadMem(2 bytes @ 0x20000000)  returns 0x00000001 (0001ms, 0630ms total)
T13C8 000:823 JLINK_Go() -- CPU_WriteMem(2 bytes @ 0x20000000) -- CPU_WriteMem(4 bytes @ 0xE0002008) -- CPU_WriteMem(4 bytes @ 0xE000200C) -- CPU_WriteMem(4 bytes @ 0xE0002010) -- CPU_WriteMem(4 bytes @ 0xE0002014) -- CPU_WriteMem(4 bytes @ 0xE0001004) (0008ms, 0638ms total)
T13C8 000:831 JLINK_IsHalted() -- CPU_ReadMem(2 bytes @ 0x20000000)  returns TRUE (0006ms, 0644ms total)
T13C8 000:837 JLINK_ReadReg(R15 (PC))  returns 0x20000000 (0000ms, 0638ms total)
T13C8 000:837 JLINK_ClrBPEx(BPHandle = 0x00000001)  returns 0x00 (0000ms, 0638ms total)
T13C8 000:837 JLINK_ReadReg(R0)  returns 0x00000000 (0000ms, 0638ms total)
T13C8 000:838 JLINK_WriteReg(R0, 0x00018000)  returns 0x00 (0000ms, 0638ms total)
T13C8 000:838 JLINK_WriteReg(R1, 0x00000400)  returns 0x00 (0000ms, 0638ms total)
T13C8 000:838 JLINK_WriteReg(R2, 0x000000FF)  returns 0x00 (0000ms, 0638ms total)
T13C8 000:838 JLINK_WriteReg(R3, 0x00000000)  returns 0x00 (0000ms, 0638ms total)
T13C8 000:838 JLINK_WriteReg(R4, 0x00000000)  returns 0x00 (0000ms, 0638ms total)
T13C8 000:838 JLINK_WriteReg(R5, 0x00000000)  returns 0x00 (0000ms, 0638ms total)
T13C8 000:838 JLINK_WriteReg(R6, 0x00000000)  returns 0x00 (0000ms, 0638ms total)
T13C8 000:838 JLINK_WriteReg(R7, 0x00000000)  returns 0x00 (0000ms, 0638ms total)
T13C8 000:838 JLINK_WriteReg(R8, 0x00000000)  returns 0x00 (0000ms, 0638ms total)
T13C8 000:838 JLINK_WriteReg(R9, 0x2000046C)  returns 0x00 (0000ms, 0638ms total)
T13C8 000:838 JLINK_WriteReg(R10, 0x00000000)  returns 0x00 (0000ms, 0638ms total)
T13C8 000:838 JLINK_WriteReg(R11, 0x00000000)  returns 0x00 (0000ms, 0638ms total)
T13C8 000:838 JLINK_WriteReg(R12, 0x00000000)  returns 0x00 (0000ms, 0638ms total)
T13C8 000:838 JLINK_WriteReg(R13 (SP), 0x20002000)  returns 0x00 (0000ms, 0638ms total)
T13C8 000:838 JLINK_WriteReg(R14, 0x20000001)  returns 0x00 (0000ms, 0638ms total)
T13C8 000:838 JLINK_WriteReg(R15 (PC), 0x20000182)  returns 0x00 (0000ms, 0638ms total)
T13C8 000:838 JLINK_WriteReg(XPSR, 0x01000000)  returns 0x00 (0000ms, 0638ms total)
T13C8 000:838 JLINK_WriteReg(MSP, 0x20002000)  returns 0x00 (0000ms, 0638ms total)
T13C8 000:838 JLINK_WriteReg(PSP, 0x20002000)  returns 0x00 (0000ms, 0638ms total)
T13C8 000:838 JLINK_WriteReg(CFBP, 0x00000000)  returns 0x00 (0001ms, 0639ms total)
T13C8 000:839 JLINK_SetBPEx(Addr = 0x20000000, Type = 0xFFFFFFF2)  returns 0x00000002 (0000ms, 0639ms total)
T13C8 000:839 JLINK_Go() (0002ms, 0641ms total)
T13C8 000:841 JLINK_IsHalted() -- CPU_ReadMem(2 bytes @ 0x20000000)  returns TRUE (0004ms, 0645ms total)
T13C8 000:845 JLINK_ReadReg(R15 (PC))  returns 0x20000000 (0001ms, 0642ms total)
T13C8 000:846 JLINK_ClrBPEx(BPHandle = 0x00000002)  returns 0x00 (0000ms, 0642ms total)
T13C8 000:846 JLINK_ReadReg(R0)  returns 0x00000001 (0000ms, 0642ms total)
T13C8 000:846 JLINK_WriteReg(R0, 0x00018000)  returns 0x00 (0000ms, 0642ms total)
T13C8 000:846 JLINK_WriteReg(R1, 0x00000400)  returns 0x00 (0000ms, 0642ms total)
T13C8 000:846 JLINK_WriteReg(R2, 0x000000FF)  returns 0x00 (0000ms, 0642ms total)
T13C8 000:846 JLINK_WriteReg(R3, 0x00000000)  returns 0x00 (0000ms, 0642ms total)
T13C8 000:846 JLINK_WriteReg(R4, 0x00000000)  returns 0x00 (0000ms, 0642ms total)
T13C8 000:846 JLINK_WriteReg(R5, 0x00000000)  returns 0x00 (0000ms, 0642ms total)
T13C8 000:846 JLINK_WriteReg(R6, 0x00000000)  returns 0x00 (0000ms, 0642ms total)
T13C8 000:846 JLINK_WriteReg(R7, 0x00000000)  returns 0x00 (0000ms, 0642ms total)
T13C8 000:846 JLINK_WriteReg(R8, 0x00000000)  returns 0x00 (0000ms, 0642ms total)
T13C8 000:846 JLINK_WriteReg(R9, 0x2000046C)  returns 0x00 (0000ms, 0642ms total)
T13C8 000:846 JLINK_WriteReg(R10, 0x00000000)  returns 0x00 (0000ms, 0642ms total)
T13C8 000:846 JLINK_WriteReg(R11, 0x00000000)  returns 0x00 (0000ms, 0642ms total)
T13C8 000:846 JLINK_WriteReg(R12, 0x00000000)  returns 0x00 (0000ms, 0642ms total)
T13C8 000:846 JLINK_WriteReg(R13 (SP), 0x20002000)  returns 0x00 (0000ms, 0642ms total)
T13C8 000:846 JLINK_WriteReg(R14, 0x20000001)  returns 0x00 (0000ms, 0642ms total)
T13C8 000:846 JLINK_WriteReg(R15 (PC), 0x200000FE)  returns 0x00 (0000ms, 0642ms total)
T13C8 000:846 JLINK_WriteReg(XPSR, 0x01000000)  returns 0x00 (0000ms, 0642ms total)
T13C8 000:846 JLINK_WriteReg(MSP, 0x20002000)  returns 0x00 (0000ms, 0642ms total)
T13C8 000:846 JLINK_WriteReg(PSP, 0x20002000)  returns 0x00 (0000ms, 0642ms total)
T13C8 000:846 JLINK_WriteReg(CFBP, 0x00000000)  returns 0x00 (0001ms, 0643ms total)
T13C8 000:847 JLINK_SetBPEx(Addr = 0x20000000, Type = 0xFFFFFFF2)  returns 0x00000003 (0000ms, 0643ms total)
T13C8 000:847 JLINK_Go() (0002ms, 0645ms total)
T13C8 000:849 JLINK_IsHalted()  returns FALSE (0000ms, 0645ms total)
T13C8 001:026 JLINK_IsHalted() -- CPU_ReadMem(2 bytes @ 0x20000000)  returns TRUE (0005ms, 0650ms total)
T13C8 001:031 JLINK_ReadReg(R15 (PC))  returns 0x20000000 (0000ms, 0645ms total)
T13C8 001:031 JLINK_ClrBPEx(BPHandle = 0x00000003)  returns 0x00 (0000ms, 0645ms total)
T13C8 001:031 JLINK_ReadReg(R0)  returns 0x00000000 (0000ms, 0645ms total)
T13C8 001:031 JLINK_WriteReg(R0, 0x00018400)  returns 0x00 (0000ms, 0645ms total)
T13C8 001:031 JLINK_WriteReg(R1, 0x00000400)  returns 0x00 (0000ms, 0645ms total)
T13C8 001:031 JLINK_WriteReg(R2, 0x000000FF)  returns 0x00 (0000ms, 0645ms total)
T13C8 001:031 JLINK_WriteReg(R3, 0x00000000)  returns 0x00 (0000ms, 0645ms total)
T13C8 001:031 JLINK_WriteReg(R4, 0x00000000)  returns 0x00 (0000ms, 0645ms total)
T13C8 001:031 JLINK_WriteReg(R5, 0x00000000)  returns 0x00 (0000ms, 0645ms total)
T13C8 001:031 JLINK_WriteReg(R6, 0x00000000)  returns 0x00 (0000ms, 0645ms total)
T13C8 001:031 JLINK_WriteReg(R7, 0x00000000)  returns 0x00 (0000ms, 0645ms total)
T13C8 001:031 JLINK_WriteReg(R8, 0x00000000)  returns 0x00 (0000ms, 0645ms total)
T13C8 001:031 JLINK_WriteReg(R9, 0x2000046C)  returns 0x00 (0000ms, 0645ms total)
T13C8 001:031 JLINK_WriteReg(R10, 0x00000000)  returns 0x00 (0000ms, 0645ms total)
T13C8 001:031 JLINK_WriteReg(R11, 0x00000000)  returns 0x00 (0000ms, 0645ms total)
T13C8 001:031 JLINK_WriteReg(R12, 0x00000000)  returns 0x00 (0000ms, 0645ms total)
T13C8 001:031 JLINK_WriteReg(R13 (SP), 0x20002000)  returns 0x00 (0000ms, 0645ms total)
T13C8 001:031 JLINK_WriteReg(R14, 0x20000001)  returns 0x00 (0000ms, 0645ms total)
T13C8 001:031 JLINK_WriteReg(R15 (PC), 0x20000182)  returns 0x00 (0000ms, 0645ms total)
T13C8 001:031 JLINK_WriteReg(XPSR, 0x01000000)  returns 0x00 (0000ms, 0645ms total)
T13C8 001:031 JLINK_WriteReg(MSP, 0x20002000)  returns 0x00 (0000ms, 0645ms total)
T13C8 001:031 JLINK_WriteReg(PSP, 0x20002000)  returns 0x00 (0000ms, 0645ms total)
T13C8 001:032 JLINK_WriteReg(CFBP, 0x00000000)  returns 0x00 (0000ms, 0646ms total)
T13C8 001:032 JLINK_SetBPEx(Addr = 0x20000000, Type = 0xFFFFFFF2)  returns 0x00000004 (0000ms, 0646ms total)
T13C8 001:032 JLINK_Go() (0002ms, 0648ms total)
T13C8 001:034 JLINK_IsHalted() -- CPU_ReadMem(2 bytes @ 0x20000000)  returns TRUE (0005ms, 0653ms total)
T13C8 001:039 JLINK_ReadReg(R15 (PC))  returns 0x20000000 (0000ms, 0648ms total)
T13C8 001:039 JLINK_ClrBPEx(BPHandle = 0x00000004)  returns 0x00 (0000ms, 0648ms total)
T13C8 001:039 JLINK_ReadReg(R0)  returns 0x00000001 (0000ms, 0648ms total)
T13C8 001:039 JLINK_WriteReg(R0, 0x00018400)  returns 0x00 (0000ms, 0648ms total)
T13C8 001:039 JLINK_WriteReg(R1, 0x00000400)  returns 0x00 (0000ms, 0648ms total)
T13C8 001:039 JLINK_WriteReg(R2, 0x000000FF)  returns 0x00 (0000ms, 0648ms total)
T13C8 001:039 JLINK_WriteReg(R3, 0x00000000)  returns 0x00 (0000ms, 0648ms total)
T13C8 001:039 JLINK_WriteReg(R4, 0x00000000)  returns 0x00 (0000ms, 0648ms total)
T13C8 001:039 JLINK_WriteReg(R5, 0x00000000)  returns 0x00 (0000ms, 0648ms total)
T13C8 001:039 JLINK_WriteReg(R6, 0x00000000)  returns 0x00 (0000ms, 0648ms total)
T13C8 001:039 JLINK_WriteReg(R7, 0x00000000)  returns 0x00 (0000ms, 0648ms total)
T13C8 001:039 JLINK_WriteReg(R8, 0x00000000)  returns 0x00 (0000ms, 0648ms total)
T13C8 001:039 JLINK_WriteReg(R9, 0x2000046C)  returns 0x00 (0000ms, 0648ms total)
T13C8 001:039 JLINK_WriteReg(R10, 0x00000000)  returns 0x00 (0000ms, 0648ms total)
T13C8 001:039 JLINK_WriteReg(R11, 0x00000000)  returns 0x00 (0000ms, 0648ms total)
T13C8 001:039 JLINK_WriteReg(R12, 0x00000000)  returns 0x00 (0000ms, 0648ms total)
T13C8 001:039 JLINK_WriteReg(R13 (SP), 0x20002000)  returns 0x00 (0000ms, 0648ms total)
T13C8 001:039 JLINK_WriteReg(R14, 0x20000001)  returns 0x00 (0000ms, 0648ms total)
T13C8 001:039 JLINK_WriteReg(R15 (PC), 0x200000FE)  returns 0x00 (0000ms, 0648ms total)
T13C8 001:039 JLINK_WriteReg(XPSR, 0x01000000)  returns 0x00 (0000ms, 0648ms total)
T13C8 001:039 JLINK_WriteReg(MSP, 0x20002000)  returns 0x00 (0000ms, 0648ms total)
T13C8 001:039 JLINK_WriteReg(PSP, 0x20002000)  returns 0x00 (0000ms, 0648ms total)
T13C8 001:039 JLINK_WriteReg(CFBP, 0x00000000)  returns 0x00 (0000ms, 0648ms total)
T13C8 001:039 JLINK_SetBPEx(Addr = 0x20000000, Type = 0xFFFFFFF2)  returns 0x00000005 (0000ms, 0648ms total)
T13C8 001:039 JLINK_Go() (0002ms, 0650ms total)
T13C8 001:041 JLINK_IsHalted()  returns FALSE (0000ms, 0650ms total)
T13C8 001:044 JLINK_IsHalted()  returns FALSE (0000ms, 0650ms total)
T13C8 001:046 JLINK_IsHalted()  returns FALSE (0000ms, 0650ms total)
T13C8 001:047 JLINK_IsHalted()  returns FALSE (0001ms, 0651ms total)
T13C8 001:050 JLINK_IsHalted()  returns FALSE (0001ms, 0651ms total)
T13C8 001:053 JLINK_IsHalted()  returns FALSE (0000ms, 0650ms total)
T13C8 001:055 JLINK_IsHalted()  returns FALSE (0000ms, 0650ms total)
T13C8 001:057 JLINK_IsHalted()  returns FALSE (0001ms, 0651ms total)
T13C8 001:060 JLINK_IsHalted()  returns FALSE (0000ms, 0650ms total)
T13C8 001:062 JLINK_IsHalted() -- CPU_ReadMem(2 bytes @ 0x20000000)  returns TRUE (0005ms, 0655ms total)
T13C8 001:067 JLINK_ReadReg(R15 (PC))  returns 0x20000000 (0000ms, 0650ms total)
T13C8 001:067 JLINK_ClrBPEx(BPHandle = 0x00000005)  returns 0x00 (0000ms, 0650ms total)
T13C8 001:067 JLINK_ReadReg(R0)  returns 0x00000000 (0000ms, 0650ms total)
T13C8 001:067 JLINK_WriteReg(R0, 0x00018800)  returns 0x00 (0000ms, 0650ms total)
T13C8 001:067 JLINK_WriteReg(R1, 0x00000400)  returns 0x00 (0000ms, 0650ms total)
T13C8 001:067 JLINK_WriteReg(R2, 0x000000FF)  returns 0x00 (0000ms, 0650ms total)
T13C8 001:067 JLINK_WriteReg(R3, 0x00000000)  returns 0x00 (0000ms, 0650ms total)
T13C8 001:067 JLINK_WriteReg(R4, 0x00000000)  returns 0x00 (0000ms, 0650ms total)
T13C8 001:067 JLINK_WriteReg(R5, 0x00000000)  returns 0x00 (0000ms, 0650ms total)
T13C8 001:067 JLINK_WriteReg(R6, 0x00000000)  returns 0x00 (0000ms, 0650ms total)
T13C8 001:067 JLINK_WriteReg(R7, 0x00000000)  returns 0x00 (0000ms, 0650ms total)
T13C8 001:067 JLINK_WriteReg(R8, 0x00000000)  returns 0x00 (0001ms, 0651ms total)
T13C8 001:068 JLINK_WriteReg(R9, 0x2000046C)  returns 0x00 (0000ms, 0651ms total)
T13C8 001:068 JLINK_WriteReg(R10, 0x00000000)  returns 0x00 (0000ms, 0651ms total)
T13C8 001:068 JLINK_WriteReg(R11, 0x00000000)  returns 0x00 (0000ms, 0651ms total)
T13C8 001:068 JLINK_WriteReg(R12, 0x00000000)  returns 0x00 (0000ms, 0651ms total)
T13C8 001:068 JLINK_WriteReg(R13 (SP), 0x20002000)  returns 0x00 (0000ms, 0651ms total)
T13C8 001:068 JLINK_WriteReg(R14, 0x20000001)  returns 0x00 (0000ms, 0651ms total)
T13C8 001:068 JLINK_WriteReg(R15 (PC), 0x20000182)  returns 0x00 (0000ms, 0651ms total)
T13C8 001:068 JLINK_WriteReg(XPSR, 0x01000000)  returns 0x00 (0000ms, 0651ms total)
T13C8 001:068 JLINK_WriteReg(MSP, 0x20002000)  returns 0x00 (0000ms, 0651ms total)
T13C8 001:068 JLINK_WriteReg(PSP, 0x20002000)  returns 0x00 (0000ms, 0651ms total)
T13C8 001:068 JLINK_WriteReg(CFBP, 0x00000000)  returns 0x00 (0000ms, 0651ms total)
T13C8 001:068 JLINK_SetBPEx(Addr = 0x20000000, Type = 0xFFFFFFF2)  returns 0x00000006 (0000ms, 0651ms total)
T13C8 001:068 JLINK_Go() (0002ms, 0653ms total)
T13C8 001:070 JLINK_IsHalted() -- CPU_ReadMem(2 bytes @ 0x20000000)  returns TRUE (0005ms, 0658ms total)
T13C8 001:075 JLINK_ReadReg(R15 (PC))  returns 0x20000000 (0000ms, 0653ms total)
T13C8 001:075 JLINK_ClrBPEx(BPHandle = 0x00000006)  returns 0x00 (0000ms, 0653ms total)
T13C8 001:075 JLINK_ReadReg(R0)  returns 0x00000001 (0000ms, 0653ms total)
T13C8 001:075 JLINK_WriteReg(R0, 0x00018800)  returns 0x00 (0000ms, 0653ms total)
T13C8 001:075 JLINK_WriteReg(R1, 0x00000400)  returns 0x00 (0000ms, 0653ms total)
T13C8 001:075 JLINK_WriteReg(R2, 0x000000FF)  returns 0x00 (0000ms, 0653ms total)
T13C8 001:075 JLINK_WriteReg(R3, 0x00000000)  returns 0x00 (0000ms, 0653ms total)
T13C8 001:075 JLINK_WriteReg(R4, 0x00000000)  returns 0x00 (0000ms, 0653ms total)
T13C8 001:075 JLINK_WriteReg(R5, 0x00000000)  returns 0x00 (0000ms, 0653ms total)
T13C8 001:075 JLINK_WriteReg(R6, 0x00000000)  returns 0x00 (0000ms, 0653ms total)
T13C8 001:075 JLINK_WriteReg(R7, 0x00000000)  returns 0x00 (0000ms, 0653ms total)
T13C8 001:075 JLINK_WriteReg(R8, 0x00000000)  returns 0x00 (0000ms, 0653ms total)
T13C8 001:075 JLINK_WriteReg(R9, 0x2000046C)  returns 0x00 (0000ms, 0653ms total)
T13C8 001:075 JLINK_WriteReg(R10, 0x00000000)  returns 0x00 (0000ms, 0653ms total)
T13C8 001:075 JLINK_WriteReg(R11, 0x00000000)  returns 0x00 (0000ms, 0653ms total)
T13C8 001:075 JLINK_WriteReg(R12, 0x00000000)  returns 0x00 (0000ms, 0653ms total)
T13C8 001:075 JLINK_WriteReg(R13 (SP), 0x20002000)  returns 0x00 (0000ms, 0653ms total)
T13C8 001:075 JLINK_WriteReg(R14, 0x20000001)  returns 0x00 (0000ms, 0653ms total)
T13C8 001:075 JLINK_WriteReg(R15 (PC), 0x200000FE)  returns 0x00 (0000ms, 0653ms total)
T13C8 001:075 JLINK_WriteReg(XPSR, 0x01000000)  returns 0x00 (0000ms, 0653ms total)
T13C8 001:075 JLINK_WriteReg(MSP, 0x20002000)  returns 0x00 (0000ms, 0653ms total)
T13C8 001:075 JLINK_WriteReg(PSP, 0x20002000)  returns 0x00 (0000ms, 0653ms total)
T13C8 001:075 JLINK_WriteReg(CFBP, 0x00000000)  returns 0x00 (0001ms, 0654ms total)
T13C8 001:076 JLINK_SetBPEx(Addr = 0x20000000, Type = 0xFFFFFFF2)  returns 0x00000007 (0000ms, 0654ms total)
T13C8 001:076 JLINK_Go() (0001ms, 0655ms total)
T13C8 001:077 JLINK_IsHalted()  returns FALSE (0001ms, 0656ms total)
T13C8 001:080 JLINK_IsHalted()  returns FALSE (0001ms, 0656ms total)
T13C8 001:083 JLINK_IsHalted()  returns FALSE (0000ms, 0655ms total)
T13C8 001:085 JLINK_IsHalted()  returns FALSE (0000ms, 0655ms total)
T13C8 001:102 JLINK_IsHalted() -- CPU_ReadMem(2 bytes @ 0x20000000)  returns TRUE (0005ms, 0660ms total)
T13C8 001:107 JLINK_ReadReg(R15 (PC))  returns 0x20000000 (0000ms, 0655ms total)
T13C8 001:107 JLINK_ClrBPEx(BPHandle = 0x00000007)  returns 0x00 (0000ms, 0655ms total)
T13C8 001:107 JLINK_ReadReg(R0)  returns 0x00000000 (0000ms, 0655ms total)
T13C8 001:108 JLINK_WriteReg(R0, 0x00018C00)  returns 0x00 (0000ms, 0655ms total)
T13C8 001:108 JLINK_WriteReg(R1, 0x00000400)  returns 0x00 (0000ms, 0655ms total)
T13C8 001:108 JLINK_WriteReg(R2, 0x000000FF)  returns 0x00 (0000ms, 0655ms total)
T13C8 001:108 JLINK_WriteReg(R3, 0x00000000)  returns 0x00 (0001ms, 0656ms total)
T13C8 001:109 JLINK_WriteReg(R4, 0x00000000)  returns 0x00 (0000ms, 0656ms total)
T13C8 001:109 JLINK_WriteReg(R5, 0x00000000)  returns 0x00 (0000ms, 0656ms total)
T13C8 001:109 JLINK_WriteReg(R6, 0x00000000)  returns 0x00 (0000ms, 0656ms total)
T13C8 001:109 JLINK_WriteReg(R7, 0x00000000)  returns 0x00 (0000ms, 0656ms total)
T13C8 001:109 JLINK_WriteReg(R8, 0x00000000)  returns 0x00 (0000ms, 0656ms total)
T13C8 001:109 JLINK_WriteReg(R9, 0x2000046C)  returns 0x00 (0000ms, 0656ms total)
T13C8 001:109 JLINK_WriteReg(R10, 0x00000000)  returns 0x00 (0000ms, 0656ms total)
T13C8 001:109 JLINK_WriteReg(R11, 0x00000000)  returns 0x00 (0000ms, 0656ms total)
T13C8 001:109 JLINK_WriteReg(R12, 0x00000000)  returns 0x00 (0000ms, 0656ms total)
T13C8 001:109 JLINK_WriteReg(R13 (SP), 0x20002000)  returns 0x00 (0000ms, 0656ms total)
T13C8 001:109 JLINK_WriteReg(R14, 0x20000001)  returns 0x00 (0000ms, 0656ms total)
T13C8 001:109 JLINK_WriteReg(R15 (PC), 0x20000182)  returns 0x00 (0000ms, 0656ms total)
T13C8 001:109 JLINK_WriteReg(XPSR, 0x01000000)  returns 0x00 (0000ms, 0656ms total)
T13C8 001:109 JLINK_WriteReg(MSP, 0x20002000)  returns 0x00 (0000ms, 0656ms total)
T13C8 001:109 JLINK_WriteReg(PSP, 0x20002000)  returns 0x00 (0000ms, 0656ms total)
T13C8 001:109 JLINK_WriteReg(CFBP, 0x00000000)  returns 0x00 (0000ms, 0656ms total)
T13C8 001:109 JLINK_SetBPEx(Addr = 0x20000000, Type = 0xFFFFFFF2)  returns 0x00000008 (0000ms, 0656ms total)
T13C8 001:109 JLINK_Go() (0003ms, 0659ms total)
T13C8 001:112 JLINK_IsHalted() -- CPU_ReadMem(2 bytes @ 0x20000000)  returns TRUE (0005ms, 0664ms total)
T13C8 001:117 JLINK_ReadReg(R15 (PC))  returns 0x20000000 (0000ms, 0659ms total)
T13C8 001:117 JLINK_ClrBPEx(BPHandle = 0x00000008)  returns 0x00 (0001ms, 0660ms total)
T13C8 001:118 JLINK_ReadReg(R0)  returns 0x00000001 (0000ms, 0660ms total)
T13C8 001:118 JLINK_WriteReg(R0, 0x00018C00)  returns 0x00 (0000ms, 0660ms total)
T13C8 001:118 JLINK_WriteReg(R1, 0x00000400)  returns 0x00 (0000ms, 0660ms total)
T13C8 001:118 JLINK_WriteReg(R2, 0x000000FF)  returns 0x00 (0000ms, 0660ms total)
T13C8 001:118 JLINK_WriteReg(R3, 0x00000000)  returns 0x00 (0000ms, 0660ms total)
T13C8 001:118 JLINK_WriteReg(R4, 0x00000000)  returns 0x00 (0000ms, 0660ms total)
T13C8 001:118 JLINK_WriteReg(R5, 0x00000000)  returns 0x00 (0000ms, 0660ms total)
T13C8 001:118 JLINK_WriteReg(R6, 0x00000000)  returns 0x00 (0000ms, 0660ms total)
T13C8 001:118 JLINK_WriteReg(R7, 0x00000000)  returns 0x00 (0000ms, 0660ms total)
T13C8 001:118 JLINK_WriteReg(R8, 0x00000000)  returns 0x00 (0000ms, 0660ms total)
T13C8 001:118 JLINK_WriteReg(R9, 0x2000046C)  returns 0x00 (0000ms, 0660ms total)
T13C8 001:118 JLINK_WriteReg(R10, 0x00000000)  returns 0x00 (0000ms, 0660ms total)
T13C8 001:118 JLINK_WriteReg(R11, 0x00000000)  returns 0x00 (0000ms, 0660ms total)
T13C8 001:118 JLINK_WriteReg(R12, 0x00000000)  returns 0x00 (0000ms, 0660ms total)
T13C8 001:118 JLINK_WriteReg(R13 (SP), 0x20002000)  returns 0x00 (0000ms, 0660ms total)
T13C8 001:118 JLINK_WriteReg(R14, 0x20000001)  returns 0x00 (0000ms, 0660ms total)
T13C8 001:118 JLINK_WriteReg(R15 (PC), 0x200000FE)  returns 0x00 (0000ms, 0660ms total)
T13C8 001:118 JLINK_WriteReg(XPSR, 0x01000000)  returns 0x00 (0000ms, 0660ms total)
T13C8 001:118 JLINK_WriteReg(MSP, 0x20002000)  returns 0x00 (0000ms, 0660ms total)
T13C8 001:118 JLINK_WriteReg(PSP, 0x20002000)  returns 0x00 (0000ms, 0660ms total)
T13C8 001:118 JLINK_WriteReg(CFBP, 0x00000000)  returns 0x00 (0000ms, 0660ms total)
T13C8 001:118 JLINK_SetBPEx(Addr = 0x20000000, Type = 0xFFFFFFF2)  returns 0x00000009 (0001ms, 0661ms total)
T13C8 001:119 JLINK_Go() (0002ms, 0663ms total)
T13C8 001:121 JLINK_IsHalted()  returns FALSE (0000ms, 0663ms total)
T13C8 001:123 JLINK_IsHalted()  returns FALSE (0001ms, 0664ms total)
T13C8 001:126 JLINK_IsHalted()  returns FALSE (0000ms, 0663ms total)
T13C8 001:128 JLINK_IsHalted()  returns FALSE (0000ms, 0663ms total)
T13C8 001:130 JLINK_IsHalted()  returns FALSE (0001ms, 0664ms total)
T13C8 001:133 JLINK_IsHalted()  returns FALSE (0000ms, 0663ms total)
T13C8 001:135 JLINK_IsHalted()  returns FALSE (0001ms, 0664ms total)
T13C8 001:138 JLINK_IsHalted()  returns FALSE (0000ms, 0663ms total)
T13C8 001:140 JLINK_IsHalted()  returns FALSE (0001ms, 0664ms total)
T13C8 001:143 JLINK_IsHalted() -- CPU_ReadMem(2 bytes @ 0x20000000)  returns TRUE (0006ms, 0669ms total)
T13C8 001:149 JLINK_ReadReg(R15 (PC))  returns 0x20000000 (0000ms, 0663ms total)
T13C8 001:149 JLINK_ClrBPEx(BPHandle = 0x00000009)  returns 0x00 (0000ms, 0663ms total)
T13C8 001:149 JLINK_ReadReg(R0)  returns 0x00000000 (0000ms, 0663ms total)
T13C8 001:150 JLINK_WriteReg(R0, 0x00019000)  returns 0x00 (0000ms, 0663ms total)
T13C8 001:150 JLINK_WriteReg(R1, 0x00000400)  returns 0x00 (0000ms, 0663ms total)
T13C8 001:150 JLINK_WriteReg(R2, 0x000000FF)  returns 0x00 (0000ms, 0663ms total)
T13C8 001:150 JLINK_WriteReg(R3, 0x00000000)  returns 0x00 (0000ms, 0663ms total)
T13C8 001:150 JLINK_WriteReg(R4, 0x00000000)  returns 0x00 (0000ms, 0663ms total)
T13C8 001:150 JLINK_WriteReg(R5, 0x00000000)  returns 0x00 (0000ms, 0663ms total)
T13C8 001:150 JLINK_WriteReg(R6, 0x00000000)  returns 0x00 (0000ms, 0663ms total)
T13C8 001:150 JLINK_WriteReg(R7, 0x00000000)  returns 0x00 (0000ms, 0663ms total)
T13C8 001:150 JLINK_WriteReg(R8, 0x00000000)  returns 0x00 (0000ms, 0663ms total)
T13C8 001:150 JLINK_WriteReg(R9, 0x2000046C)  returns 0x00 (0000ms, 0663ms total)
T13C8 001:150 JLINK_WriteReg(R10, 0x00000000)  returns 0x00 (0000ms, 0663ms total)
T13C8 001:150 JLINK_WriteReg(R11, 0x00000000)  returns 0x00 (0000ms, 0663ms total)
T13C8 001:150 JLINK_WriteReg(R12, 0x00000000)  returns 0x00 (0000ms, 0663ms total)
T13C8 001:150 JLINK_WriteReg(R13 (SP), 0x20002000)  returns 0x00 (0000ms, 0663ms total)
T13C8 001:150 JLINK_WriteReg(R14, 0x20000001)  returns 0x00 (0000ms, 0663ms total)
T13C8 001:150 JLINK_WriteReg(R15 (PC), 0x20000182)  returns 0x00 (0000ms, 0663ms total)
T13C8 001:150 JLINK_WriteReg(XPSR, 0x01000000)  returns 0x00 (0001ms, 0664ms total)
T13C8 001:151 JLINK_WriteReg(MSP, 0x20002000)  returns 0x00 (0000ms, 0664ms total)
T13C8 001:151 JLINK_WriteReg(PSP, 0x20002000)  returns 0x00 (0000ms, 0664ms total)
T13C8 001:151 JLINK_WriteReg(CFBP, 0x00000000)  returns 0x00 (0000ms, 0664ms total)
T13C8 001:151 JLINK_SetBPEx(Addr = 0x20000000, Type = 0xFFFFFFF2)  returns 0x0000000A (0000ms, 0664ms total)
T13C8 001:151 JLINK_Go() (0002ms, 0666ms total)
T13C8 001:153 JLINK_IsHalted() -- CPU_ReadMem(2 bytes @ 0x20000000)  returns TRUE (0005ms, 0671ms total)
T13C8 001:158 JLINK_ReadReg(R15 (PC))  returns 0x20000000 (0000ms, 0666ms total)
T13C8 001:159 JLINK_ClrBPEx(BPHandle = 0x0000000A)  returns 0x00 (0000ms, 0666ms total)
T13C8 001:159 JLINK_ReadReg(R0)  returns 0x00000001 (0000ms, 0666ms total)
T13C8 001:159 JLINK_WriteReg(R0, 0x00019000)  returns 0x00 (0000ms, 0666ms total)
T13C8 001:159 JLINK_WriteReg(R1, 0x00000400)  returns 0x00 (0000ms, 0666ms total)
T13C8 001:159 JLINK_WriteReg(R2, 0x000000FF)  returns 0x00 (0000ms, 0666ms total)
T13C8 001:159 JLINK_WriteReg(R3, 0x00000000)  returns 0x00 (0000ms, 0666ms total)
T13C8 001:159 JLINK_WriteReg(R4, 0x00000000)  returns 0x00 (0000ms, 0666ms total)
T13C8 001:159 JLINK_WriteReg(R5, 0x00000000)  returns 0x00 (0000ms, 0666ms total)
T13C8 001:159 JLINK_WriteReg(R6, 0x00000000)  returns 0x00 (0000ms, 0666ms total)
T13C8 001:159 JLINK_WriteReg(R7, 0x00000000)  returns 0x00 (0000ms, 0666ms total)
T13C8 001:159 JLINK_WriteReg(R8, 0x00000000)  returns 0x00 (0000ms, 0666ms total)
T13C8 001:159 JLINK_WriteReg(R9, 0x2000046C)  returns 0x00 (0000ms, 0666ms total)
T13C8 001:159 JLINK_WriteReg(R10, 0x00000000)  returns 0x00 (0000ms, 0666ms total)
T13C8 001:159 JLINK_WriteReg(R11, 0x00000000)  returns 0x00 (0000ms, 0666ms total)
T13C8 001:159 JLINK_WriteReg(R12, 0x00000000)  returns 0x00 (0000ms, 0666ms total)
T13C8 001:159 JLINK_WriteReg(R13 (SP), 0x20002000)  returns 0x00 (0000ms, 0666ms total)
T13C8 001:159 JLINK_WriteReg(R14, 0x20000001)  returns 0x00 (0000ms, 0666ms total)
T13C8 001:159 JLINK_WriteReg(R15 (PC), 0x200000FE)  returns 0x00 (0000ms, 0666ms total)
T13C8 001:160 JLINK_WriteReg(XPSR, 0x01000000)  returns 0x00 (0000ms, 0666ms total)
T13C8 001:160 JLINK_WriteReg(MSP, 0x20002000)  returns 0x00 (0000ms, 0666ms total)
T13C8 001:160 JLINK_WriteReg(PSP, 0x20002000)  returns 0x00 (0000ms, 0666ms total)
T13C8 001:160 JLINK_WriteReg(CFBP, 0x00000000)  returns 0x00 (0000ms, 0666ms total)
T13C8 001:160 JLINK_SetBPEx(Addr = 0x20000000, Type = 0xFFFFFFF2)  returns 0x0000000B (0000ms, 0666ms total)
T13C8 001:160 JLINK_Go() (0002ms, 0668ms total)
T13C8 001:162 JLINK_IsHalted()  returns FALSE (0001ms, 0669ms total)
T13C8 001:165 JLINK_IsHalted()  returns FALSE (0000ms, 0668ms total)
T13C8 001:167 JLINK_IsHalted()  returns FALSE (0001ms, 0669ms total)
T13C8 001:170 JLINK_IsHalted()  returns FALSE (0001ms, 0669ms total)
T13C8 001:173 JLINK_IsHalted()  returns FALSE (0000ms, 0668ms total)
T13C8 001:175 JLINK_IsHalted()  returns FALSE (0000ms, 0668ms total)
T13C8 001:177 JLINK_IsHalted()  returns FALSE (0001ms, 0669ms total)
T13C8 001:179 JLINK_IsHalted()  returns FALSE (0000ms, 0668ms total)
T13C8 001:181 JLINK_IsHalted()  returns FALSE (0001ms, 0669ms total)
T13C8 001:184 JLINK_IsHalted() -- CPU_ReadMem(2 bytes @ 0x20000000)  returns TRUE (0005ms, 0673ms total)
T13C8 001:189 JLINK_ReadReg(R15 (PC))  returns 0x20000000 (0000ms, 0668ms total)
T13C8 001:189 JLINK_ClrBPEx(BPHandle = 0x0000000B)  returns 0x00 (0000ms, 0668ms total)
T13C8 001:189 JLINK_ReadReg(R0)  returns 0x00000000 (0000ms, 0668ms total)
T13C8 001:190 JLINK_WriteReg(R0, 0x00019400)  returns 0x00 (0000ms, 0668ms total)
T13C8 001:190 JLINK_WriteReg(R1, 0x00000400)  returns 0x00 (0000ms, 0668ms total)
T13C8 001:190 JLINK_WriteReg(R2, 0x000000FF)  returns 0x00 (0000ms, 0668ms total)
T13C8 001:190 JLINK_WriteReg(R3, 0x00000000)  returns 0x00 (0000ms, 0668ms total)
T13C8 001:190 JLINK_WriteReg(R4, 0x00000000)  returns 0x00 (0000ms, 0668ms total)
T13C8 001:190 JLINK_WriteReg(R5, 0x00000000)  returns 0x00 (0000ms, 0668ms total)
T13C8 001:190 JLINK_WriteReg(R6, 0x00000000)  returns 0x00 (0000ms, 0668ms total)
T13C8 001:190 JLINK_WriteReg(R7, 0x00000000)  returns 0x00 (0001ms, 0669ms total)
T13C8 001:191 JLINK_WriteReg(R8, 0x00000000)  returns 0x00 (0000ms, 0669ms total)
T13C8 001:191 JLINK_WriteReg(R9, 0x2000046C)  returns 0x00 (0000ms, 0669ms total)
T13C8 001:191 JLINK_WriteReg(R10, 0x00000000)  returns 0x00 (0000ms, 0669ms total)
T13C8 001:191 JLINK_WriteReg(R11, 0x00000000)  returns 0x00 (0000ms, 0669ms total)
T13C8 001:191 JLINK_WriteReg(R12, 0x00000000)  returns 0x00 (0000ms, 0669ms total)
T13C8 001:191 JLINK_WriteReg(R13 (SP), 0x20002000)  returns 0x00 (0000ms, 0669ms total)
T13C8 001:191 JLINK_WriteReg(R14, 0x20000001)  returns 0x00 (0000ms, 0669ms total)
T13C8 001:191 JLINK_WriteReg(R15 (PC), 0x20000182)  returns 0x00 (0000ms, 0669ms total)
T13C8 001:191 JLINK_WriteReg(XPSR, 0x01000000)  returns 0x00 (0000ms, 0669ms total)
T13C8 001:191 JLINK_WriteReg(MSP, 0x20002000)  returns 0x00 (0000ms, 0669ms total)
T13C8 001:191 JLINK_WriteReg(PSP, 0x20002000)  returns 0x00 (0000ms, 0669ms total)
T13C8 001:191 JLINK_WriteReg(CFBP, 0x00000000)  returns 0x00 (0000ms, 0669ms total)
T13C8 001:191 JLINK_SetBPEx(Addr = 0x20000000, Type = 0xFFFFFFF2)  returns 0x0000000C (0000ms, 0669ms total)
T13C8 001:191 JLINK_Go() (0003ms, 0672ms total)
T13C8 001:194 JLINK_IsHalted() -- CPU_ReadMem(2 bytes @ 0x20000000)  returns TRUE (0005ms, 0677ms total)
T13C8 001:199 JLINK_ReadReg(R15 (PC))  returns 0x20000000 (0000ms, 0672ms total)
T13C8 001:199 JLINK_ClrBPEx(BPHandle = 0x0000000C)  returns 0x00 (0000ms, 0672ms total)
T13C8 001:199 JLINK_ReadReg(R0)  returns 0x00000001 (0000ms, 0672ms total)
T13C8 001:199 JLINK_WriteReg(R0, 0x00019400)  returns 0x00 (0000ms, 0672ms total)
T13C8 001:199 JLINK_WriteReg(R1, 0x00000400)  returns 0x00 (0000ms, 0672ms total)
T13C8 001:199 JLINK_WriteReg(R2, 0x000000FF)  returns 0x00 (0000ms, 0672ms total)
T13C8 001:199 JLINK_WriteReg(R3, 0x00000000)  returns 0x00 (0000ms, 0672ms total)
T13C8 001:199 JLINK_WriteReg(R4, 0x00000000)  returns 0x00 (0000ms, 0672ms total)
T13C8 001:199 JLINK_WriteReg(R5, 0x00000000)  returns 0x00 (0000ms, 0672ms total)
T13C8 001:199 JLINK_WriteReg(R6, 0x00000000)  returns 0x00 (0000ms, 0672ms total)
T13C8 001:199 JLINK_WriteReg(R7, 0x00000000)  returns 0x00 (0000ms, 0672ms total)
T13C8 001:199 JLINK_WriteReg(R8, 0x00000000)  returns 0x00 (0000ms, 0672ms total)
T13C8 001:199 JLINK_WriteReg(R9, 0x2000046C)  returns 0x00 (0000ms, 0672ms total)
T13C8 001:199 JLINK_WriteReg(R10, 0x00000000)  returns 0x00 (0000ms, 0672ms total)
T13C8 001:199 JLINK_WriteReg(R11, 0x00000000)  returns 0x00 (0000ms, 0672ms total)
T13C8 001:199 JLINK_WriteReg(R12, 0x00000000)  returns 0x00 (0000ms, 0672ms total)
T13C8 001:199 JLINK_WriteReg(R13 (SP), 0x20002000)  returns 0x00 (0000ms, 0672ms total)
T13C8 001:199 JLINK_WriteReg(R14, 0x20000001)  returns 0x00 (0000ms, 0672ms total)
T13C8 001:199 JLINK_WriteReg(R15 (PC), 0x200000FE)  returns 0x00 (0001ms, 0673ms total)
T13C8 001:200 JLINK_WriteReg(XPSR, 0x01000000)  returns 0x00 (0000ms, 0673ms total)
T13C8 001:200 JLINK_WriteReg(MSP, 0x20002000)  returns 0x00 (0000ms, 0673ms total)
T13C8 001:200 JLINK_WriteReg(PSP, 0x20002000)  returns 0x00 (0000ms, 0673ms total)
T13C8 001:200 JLINK_WriteReg(CFBP, 0x00000000)  returns 0x00 (0000ms, 0673ms total)
T13C8 001:200 JLINK_SetBPEx(Addr = 0x20000000, Type = 0xFFFFFFF2)  returns 0x0000000D (0000ms, 0673ms total)
T13C8 001:200 JLINK_Go() (0002ms, 0675ms total)
T13C8 001:202 JLINK_IsHalted()  returns FALSE (0001ms, 0676ms total)
T13C8 001:226 JLINK_IsHalted() -- CPU_ReadMem(2 bytes @ 0x20000000)  returns TRUE (0005ms, 0680ms total)
T13C8 001:231 JLINK_ReadReg(R15 (PC))  returns 0x20000000 (0000ms, 0675ms total)
T13C8 001:231 JLINK_ClrBPEx(BPHandle = 0x0000000D)  returns 0x00 (0000ms, 0675ms total)
T13C8 001:231 JLINK_ReadReg(R0)  returns 0x00000000 (0000ms, 0675ms total)
T13C8 001:231 JLINK_WriteReg(R0, 0x00019800)  returns 0x00 (0000ms, 0675ms total)
T13C8 001:231 JLINK_WriteReg(R1, 0x00000400)  returns 0x00 (0001ms, 0676ms total)
T13C8 001:232 JLINK_WriteReg(R2, 0x000000FF)  returns 0x00 (0000ms, 0676ms total)
T13C8 001:232 JLINK_WriteReg(R3, 0x00000000)  returns 0x00 (0000ms, 0676ms total)
T13C8 001:232 JLINK_WriteReg(R4, 0x00000000)  returns 0x00 (0000ms, 0676ms total)
T13C8 001:232 JLINK_WriteReg(R5, 0x00000000)  returns 0x00 (0000ms, 0676ms total)
T13C8 001:232 JLINK_WriteReg(R6, 0x00000000)  returns 0x00 (0000ms, 0676ms total)
T13C8 001:232 JLINK_WriteReg(R7, 0x00000000)  returns 0x00 (0000ms, 0676ms total)
T13C8 001:232 JLINK_WriteReg(R8, 0x00000000)  returns 0x00 (0000ms, 0676ms total)
T13C8 001:232 JLINK_WriteReg(R9, 0x2000046C)  returns 0x00 (0000ms, 0676ms total)
T13C8 001:232 JLINK_WriteReg(R10, 0x00000000)  returns 0x00 (0000ms, 0676ms total)
T13C8 001:232 JLINK_WriteReg(R11, 0x00000000)  returns 0x00 (0000ms, 0676ms total)
T13C8 001:232 JLINK_WriteReg(R12, 0x00000000)  returns 0x00 (0000ms, 0676ms total)
T13C8 001:232 JLINK_WriteReg(R13 (SP), 0x20002000)  returns 0x00 (0000ms, 0676ms total)
T13C8 001:232 JLINK_WriteReg(R14, 0x20000001)  returns 0x00 (0000ms, 0676ms total)
T13C8 001:232 JLINK_WriteReg(R15 (PC), 0x20000182)  returns 0x00 (0000ms, 0676ms total)
T13C8 001:232 JLINK_WriteReg(XPSR, 0x01000000)  returns 0x00 (0000ms, 0676ms total)
T13C8 001:232 JLINK_WriteReg(MSP, 0x20002000)  returns 0x00 (0000ms, 0676ms total)
T13C8 001:232 JLINK_WriteReg(PSP, 0x20002000)  returns 0x00 (0000ms, 0676ms total)
T13C8 001:232 JLINK_WriteReg(CFBP, 0x00000000)  returns 0x00 (0000ms, 0676ms total)
T13C8 001:232 JLINK_SetBPEx(Addr = 0x20000000, Type = 0xFFFFFFF2)  returns 0x0000000E (0000ms, 0676ms total)
T13C8 001:232 JLINK_Go() (0003ms, 0679ms total)
T13C8 001:235 JLINK_IsHalted() -- CPU_ReadMem(2 bytes @ 0x20000000)  returns TRUE (0005ms, 0684ms total)
T13C8 001:240 JLINK_ReadReg(R15 (PC))  returns 0x20000000 (0000ms, 0679ms total)
T13C8 001:240 JLINK_ClrBPEx(BPHandle = 0x0000000E)  returns 0x00 (0000ms, 0679ms total)
T13C8 001:240 JLINK_ReadReg(R0)  returns 0x00000001 (0000ms, 0679ms total)
T13C8 001:240 JLINK_WriteReg(R0, 0x00019800)  returns 0x00 (0000ms, 0679ms total)
T13C8 001:240 JLINK_WriteReg(R1, 0x00000400)  returns 0x00 (0000ms, 0679ms total)
T13C8 001:240 JLINK_WriteReg(R2, 0x000000FF)  returns 0x00 (0000ms, 0679ms total)
T13C8 001:240 JLINK_WriteReg(R3, 0x00000000)  returns 0x00 (0000ms, 0679ms total)
T13C8 001:240 JLINK_WriteReg(R4, 0x00000000)  returns 0x00 (0000ms, 0679ms total)
T13C8 001:240 JLINK_WriteReg(R5, 0x00000000)  returns 0x00 (0000ms, 0679ms total)
T13C8 001:240 JLINK_WriteReg(R6, 0x00000000)  returns 0x00 (0000ms, 0679ms total)
T13C8 001:240 JLINK_WriteReg(R7, 0x00000000)  returns 0x00 (0000ms, 0679ms total)
T13C8 001:240 JLINK_WriteReg(R8, 0x00000000)  returns 0x00 (0000ms, 0679ms total)
T13C8 001:240 JLINK_WriteReg(R9, 0x2000046C)  returns 0x00 (0000ms, 0679ms total)
T13C8 001:240 JLINK_WriteReg(R10, 0x00000000)  returns 0x00 (0000ms, 0679ms total)
T13C8 001:240 JLINK_WriteReg(R11, 0x00000000)  returns 0x00 (0000ms, 0679ms total)
T13C8 001:240 JLINK_WriteReg(R12, 0x00000000)  returns 0x00 (0000ms, 0679ms total)
T13C8 001:240 JLINK_WriteReg(R13 (SP), 0x20002000)  returns 0x00 (0000ms, 0679ms total)
T13C8 001:240 JLINK_WriteReg(R14, 0x20000001)  returns 0x00 (0000ms, 0679ms total)
T13C8 001:240 JLINK_WriteReg(R15 (PC), 0x200000FE)  returns 0x00 (0000ms, 0679ms total)
T13C8 001:240 JLINK_WriteReg(XPSR, 0x01000000)  returns 0x00 (0000ms, 0679ms total)
T13C8 001:240 JLINK_WriteReg(MSP, 0x20002000)  returns 0x00 (0000ms, 0679ms total)
T13C8 001:240 JLINK_WriteReg(PSP, 0x20002000)  returns 0x00 (0000ms, 0679ms total)
T13C8 001:240 JLINK_WriteReg(CFBP, 0x00000000)  returns 0x00 (0000ms, 0679ms total)
T13C8 001:240 JLINK_SetBPEx(Addr = 0x20000000, Type = 0xFFFFFFF2)  returns 0x0000000F (0000ms, 0679ms total)
T13C8 001:240 JLINK_Go() (0002ms, 0681ms total)
T13C8 001:242 JLINK_IsHalted()  returns FALSE (0001ms, 0682ms total)
T13C8 001:245 JLINK_IsHalted()  returns FALSE (0000ms, 0681ms total)
T13C8 001:247 JLINK_IsHalted()  returns FALSE (0000ms, 0681ms total)
T13C8 001:249 JLINK_IsHalted()  returns FALSE (0000ms, 0681ms total)
T13C8 001:251 JLINK_IsHalted()  returns FALSE (0001ms, 0682ms total)
T13C8 001:254 JLINK_IsHalted()  returns FALSE (0000ms, 0681ms total)
T13C8 001:257 JLINK_IsHalted()  returns FALSE (0000ms, 0681ms total)
T13C8 001:259 JLINK_IsHalted()  returns FALSE (0000ms, 0681ms total)
T13C8 001:261 JLINK_IsHalted()  returns FALSE (0000ms, 0681ms total)
T13C8 001:263 JLINK_IsHalted() -- CPU_ReadMem(2 bytes @ 0x20000000)  returns TRUE (0005ms, 0686ms total)
T13C8 001:268 JLINK_ReadReg(R15 (PC))  returns 0x20000000 (0000ms, 0681ms total)
T13C8 001:268 JLINK_ClrBPEx(BPHandle = 0x0000000F)  returns 0x00 (0000ms, 0681ms total)
T13C8 001:268 JLINK_ReadReg(R0)  returns 0x00000000 (0000ms, 0681ms total)
T13C8 001:269 JLINK_WriteReg(R0, 0x00019C00)  returns 0x00 (0000ms, 0681ms total)
T13C8 001:269 JLINK_WriteReg(R1, 0x00000400)  returns 0x00 (0000ms, 0681ms total)
T13C8 001:269 JLINK_WriteReg(R2, 0x000000FF)  returns 0x00 (0000ms, 0681ms total)
T13C8 001:269 JLINK_WriteReg(R3, 0x00000000)  returns 0x00 (0000ms, 0681ms total)
T13C8 001:269 JLINK_WriteReg(R4, 0x00000000)  returns 0x00 (0000ms, 0681ms total)
T13C8 001:269 JLINK_WriteReg(R5, 0x00000000)  returns 0x00 (0000ms, 0681ms total)
T13C8 001:269 JLINK_WriteReg(R6, 0x00000000)  returns 0x00 (0000ms, 0681ms total)
T13C8 001:269 JLINK_WriteReg(R7, 0x00000000)  returns 0x00 (0000ms, 0681ms total)
T13C8 001:269 JLINK_WriteReg(R8, 0x00000000)  returns 0x00 (0000ms, 0681ms total)
T13C8 001:269 JLINK_WriteReg(R9, 0x2000046C)  returns 0x00 (0000ms, 0681ms total)
T13C8 001:269 JLINK_WriteReg(R10, 0x00000000)  returns 0x00 (0000ms, 0681ms total)
T13C8 001:270 JLINK_WriteReg(R11, 0x00000000)  returns 0x00 (0000ms, 0682ms total)
T13C8 001:270 JLINK_WriteReg(R12, 0x00000000)  returns 0x00 (0000ms, 0682ms total)
T13C8 001:270 JLINK_WriteReg(R13 (SP), 0x20002000)  returns 0x00 (0000ms, 0682ms total)
T13C8 001:270 JLINK_WriteReg(R14, 0x20000001)  returns 0x00 (0000ms, 0682ms total)
T13C8 001:270 JLINK_WriteReg(R15 (PC), 0x20000182)  returns 0x00 (0000ms, 0682ms total)
T13C8 001:270 JLINK_WriteReg(XPSR, 0x01000000)  returns 0x00 (0000ms, 0682ms total)
T13C8 001:270 JLINK_WriteReg(MSP, 0x20002000)  returns 0x00 (0000ms, 0682ms total)
T13C8 001:270 JLINK_WriteReg(PSP, 0x20002000)  returns 0x00 (0000ms, 0682ms total)
T13C8 001:270 JLINK_WriteReg(CFBP, 0x00000000)  returns 0x00 (0000ms, 0682ms total)
T13C8 001:270 JLINK_SetBPEx(Addr = 0x20000000, Type = 0xFFFFFFF2)  returns 0x00000010 (0000ms, 0682ms total)
T13C8 001:270 JLINK_Go() (0002ms, 0684ms total)
T13C8 001:272 JLINK_IsHalted() -- CPU_ReadMem(2 bytes @ 0x20000000)  returns TRUE (0005ms, 0689ms total)
T13C8 001:277 JLINK_ReadReg(R15 (PC))  returns 0x20000000 (0000ms, 0684ms total)
T13C8 001:277 JLINK_ClrBPEx(BPHandle = 0x00000010)  returns 0x00 (0000ms, 0684ms total)
T13C8 001:277 JLINK_ReadReg(R0)  returns 0x00000001 (0000ms, 0684ms total)
T13C8 001:277 JLINK_WriteReg(R0, 0x00019C00)  returns 0x00 (0000ms, 0684ms total)
T13C8 001:277 JLINK_WriteReg(R1, 0x00000400)  returns 0x00 (0000ms, 0684ms total)
T13C8 001:277 JLINK_WriteReg(R2, 0x000000FF)  returns 0x00 (0000ms, 0684ms total)
T13C8 001:277 JLINK_WriteReg(R3, 0x00000000)  returns 0x00 (0000ms, 0684ms total)
T13C8 001:277 JLINK_WriteReg(R4, 0x00000000)  returns 0x00 (0000ms, 0684ms total)
T13C8 001:277 JLINK_WriteReg(R5, 0x00000000)  returns 0x00 (0000ms, 0684ms total)
T13C8 001:277 JLINK_WriteReg(R6, 0x00000000)  returns 0x00 (0000ms, 0684ms total)
T13C8 001:277 JLINK_WriteReg(R7, 0x00000000)  returns 0x00 (0000ms, 0684ms total)
T13C8 001:277 JLINK_WriteReg(R8, 0x00000000)  returns 0x00 (0000ms, 0684ms total)
T13C8 001:277 JLINK_WriteReg(R9, 0x2000046C)  returns 0x00 (0000ms, 0684ms total)
T13C8 001:277 JLINK_WriteReg(R10, 0x00000000)  returns 0x00 (0000ms, 0684ms total)
T13C8 001:277 JLINK_WriteReg(R11, 0x00000000)  returns 0x00 (0000ms, 0684ms total)
T13C8 001:277 JLINK_WriteReg(R12, 0x00000000)  returns 0x00 (0000ms, 0684ms total)
T13C8 001:277 JLINK_WriteReg(R13 (SP), 0x20002000)  returns 0x00 (0000ms, 0684ms total)
T13C8 001:277 JLINK_WriteReg(R14, 0x20000001)  returns 0x00 (0000ms, 0684ms total)
T13C8 001:277 JLINK_WriteReg(R15 (PC), 0x200000FE)  returns 0x00 (0000ms, 0684ms total)
T13C8 001:277 JLINK_WriteReg(XPSR, 0x01000000)  returns 0x00 (0000ms, 0684ms total)
T13C8 001:277 JLINK_WriteReg(MSP, 0x20002000)  returns 0x00 (0000ms, 0684ms total)
T13C8 001:277 JLINK_WriteReg(PSP, 0x20002000)  returns 0x00 (0000ms, 0684ms total)
T13C8 001:277 JLINK_WriteReg(CFBP, 0x00000000)  returns 0x00 (0000ms, 0684ms total)
T13C8 001:277 JLINK_SetBPEx(Addr = 0x20000000, Type = 0xFFFFFFF2)  returns 0x00000011 (0000ms, 0684ms total)
T13C8 001:277 JLINK_Go() (0003ms, 0687ms total)
T13C8 001:280 JLINK_IsHalted()  returns FALSE (0000ms, 0687ms total)
T13C8 001:282 JLINK_IsHalted()  returns FALSE (0001ms, 0688ms total)
T13C8 001:285 JLINK_IsHalted()  returns FALSE (0001ms, 0688ms total)
T13C8 001:288 JLINK_IsHalted()  returns FALSE (0000ms, 0687ms total)
T13C8 001:290 JLINK_IsHalted()  returns FALSE (0000ms, 0687ms total)
T13C8 001:292 JLINK_IsHalted()  returns FALSE (0000ms, 0687ms total)
T13C8 001:294 JLINK_IsHalted()  returns FALSE (0000ms, 0687ms total)
T13C8 001:296 JLINK_IsHalted()  returns FALSE (0000ms, 0687ms total)
T13C8 001:298 JLINK_IsHalted()  returns FALSE (0000ms, 0687ms total)
T13C8 001:300 JLINK_IsHalted() -- CPU_ReadMem(2 bytes @ 0x20000000)  returns TRUE (0005ms, 0692ms total)
T13C8 001:305 JLINK_ReadReg(R15 (PC))  returns 0x20000000 (0000ms, 0687ms total)
T13C8 001:305 JLINK_ClrBPEx(BPHandle = 0x00000011)  returns 0x00 (0000ms, 0687ms total)
T13C8 001:305 JLINK_ReadReg(R0)  returns 0x00000000 (0000ms, 0687ms total)
T13C8 001:305 JLINK_WriteReg(R0, 0x0001A000)  returns 0x00 (0000ms, 0687ms total)
T13C8 001:305 JLINK_WriteReg(R1, 0x00000400)  returns 0x00 (0001ms, 0688ms total)
T13C8 001:306 JLINK_WriteReg(R2, 0x000000FF)  returns 0x00 (0000ms, 0688ms total)
T13C8 001:306 JLINK_WriteReg(R3, 0x00000000)  returns 0x00 (0000ms, 0688ms total)
T13C8 001:306 JLINK_WriteReg(R4, 0x00000000)  returns 0x00 (0000ms, 0688ms total)
T13C8 001:306 JLINK_WriteReg(R5, 0x00000000)  returns 0x00 (0000ms, 0688ms total)
T13C8 001:306 JLINK_WriteReg(R6, 0x00000000)  returns 0x00 (0000ms, 0688ms total)
T13C8 001:306 JLINK_WriteReg(R7, 0x00000000)  returns 0x00 (0000ms, 0688ms total)
T13C8 001:306 JLINK_WriteReg(R8, 0x00000000)  returns 0x00 (0000ms, 0688ms total)
T13C8 001:306 JLINK_WriteReg(R9, 0x2000046C)  returns 0x00 (0000ms, 0688ms total)
T13C8 001:306 JLINK_WriteReg(R10, 0x00000000)  returns 0x00 (0000ms, 0688ms total)
T13C8 001:306 JLINK_WriteReg(R11, 0x00000000)  returns 0x00 (0000ms, 0688ms total)
T13C8 001:306 JLINK_WriteReg(R12, 0x00000000)  returns 0x00 (0000ms, 0688ms total)
T13C8 001:306 JLINK_WriteReg(R13 (SP), 0x20002000)  returns 0x00 (0000ms, 0688ms total)
T13C8 001:306 JLINK_WriteReg(R14, 0x20000001)  returns 0x00 (0000ms, 0688ms total)
T13C8 001:306 JLINK_WriteReg(R15 (PC), 0x20000182)  returns 0x00 (0000ms, 0688ms total)
T13C8 001:306 JLINK_WriteReg(XPSR, 0x01000000)  returns 0x00 (0000ms, 0688ms total)
T13C8 001:306 JLINK_WriteReg(MSP, 0x20002000)  returns 0x00 (0000ms, 0688ms total)
T13C8 001:306 JLINK_WriteReg(PSP, 0x20002000)  returns 0x00 (0000ms, 0688ms total)
T13C8 001:306 JLINK_WriteReg(CFBP, 0x00000000)  returns 0x00 (0000ms, 0688ms total)
